Freq.	V(vout)
1.00000000000000e-002	(-6.41208741068399e+001dB,1.77131672914299e+002°)
1.00023028502082e-002	(-6.41168765966358e+001dB,1.77131012654783e+002°)
1.00046062307284e-002	(-6.41128790875778e+001dB,1.77130352243408e+002°)
1.00069101416826e-002	(-6.41088815796664e+001dB,1.77129691680139e+002°)
1.00092145831930e-002	(-6.41048840729023e+001dB,1.77129030964941e+002°)
1.00115195553817e-002	(-6.41008865672859e+001dB,1.77128370097779e+002°)
1.00138250583710e-002	(-6.40968890628177e+001dB,1.77127709078619e+002°)
1.00161310922831e-002	(-6.40928915594983e+001dB,1.77127047907425e+002°)
1.00184376572403e-002	(-6.40888940573283e+001dB,1.77126386584163e+002°)
1.00207447533648e-002	(-6.40848965563080e+001dB,1.77125725108797e+002°)
1.00230523807790e-002	(-6.40808990564382e+001dB,1.77125063481294e+002°)
1.00253605396052e-002	(-6.40769015577192e+001dB,1.77124401701618e+002°)
1.00276692299659e-002	(-6.40729040601517e+001dB,1.77123739769733e+002°)
1.00299784519833e-002	(-6.40689065637361e+001dB,1.77123077685606e+002°)
1.00322882057800e-002	(-6.40649090684730e+001dB,1.77122415449201e+002°)
1.00345984914784e-002	(-6.40609115743629e+001dB,1.77121753060484e+002°)
1.00369093092010e-002	(-6.40569140814064e+001dB,1.77121090519418e+002°)
1.00392206590702e-002	(-6.40529165896040e+001dB,1.77120427825970e+002°)
1.00415325412088e-002	(-6.40489190989561e+001dB,1.77119764980105e+002°)
1.00438449557391e-002	(-6.40449216094634e+001dB,1.77119101981787e+002°)
1.00461579027839e-002	(-6.40409241211264e+001dB,1.77118438830982e+002°)
1.00484713824658e-002	(-6.40369266339456e+001dB,1.77117775527654e+002°)
1.00507853949073e-002	(-6.40329291479215e+001dB,1.77117112071768e+002°)
1.00530999402313e-002	(-6.40289316630547e+001dB,1.77116448463291e+002°)
1.00554150185604e-002	(-6.40249341793456e+001dB,1.77115784702185e+002°)
1.00577306300174e-002	(-6.40209366967949e+001dB,1.77115120788417e+002°)
1.00600467747249e-002	(-6.40169392154031e+001dB,1.77114456721952e+002°)
1.00623634528060e-002	(-6.40129417351707e+001dB,1.77113792502754e+002°)
1.00646806643832e-002	(-6.40089442560982e+001dB,1.77113128130789e+002°)
1.00669984095796e-002	(-6.40049467781862e+001dB,1.77112463606021e+002°)
1.00693166885180e-002	(-6.40009493014351e+001dB,1.77111798928415e+002°)
1.00716355013213e-002	(-6.39969518258456e+001dB,1.77111134097936e+002°)
1.00739548481125e-002	(-6.39929543514182e+001dB,1.77110469114550e+002°)
1.00762747290145e-002	(-6.39889568781534e+001dB,1.77109803978220e+002°)
1.00785951441503e-002	(-6.39849594060517e+001dB,1.77109138688913e+002°)
1.00809160936429e-002	(-6.39809619351136e+001dB,1.77108473246593e+002°)
1.00832375776155e-002	(-6.39769644653398e+001dB,1.77107807651224e+002°)
1.00855595961910e-002	(-6.39729669967308e+001dB,1.77107141902772e+002°)
1.00878821494927e-002	(-6.39689695292870e+001dB,1.77106476001202e+002°)
1.00902052376435e-002	(-6.39649720630090e+001dB,1.77105809946478e+002°)
1.00925288607668e-002	(-6.39609745978974e+001dB,1.77105143738565e+002°)
1.00948530189857e-002	(-6.39569771339526e+001dB,1.77104477377429e+002°)
1.00971777124234e-002	(-6.39529796711753e+001dB,1.77103810863033e+002°)
1.00995029412032e-002	(-6.39489822095660e+001dB,1.77103144195344e+002°)
1.01018287054483e-002	(-6.39449847491251e+001dB,1.77102477374325e+002°)
1.01041550052821e-002	(-6.39409872898533e+001dB,1.77101810399942e+002°)
1.01064818408279e-002	(-6.39369898317511e+001dB,1.77101143272159e+002°)
1.01088092122091e-002	(-6.39329923748189e+001dB,1.77100475990941e+002°)
1.01111371195490e-002	(-6.39289949190575e+001dB,1.77099808556253e+002°)
1.01134655629712e-002	(-6.39249974644672e+001dB,1.77099140968060e+002°)
1.01157945425989e-002	(-6.39210000110486e+001dB,1.77098473226326e+002°)
1.01181240585558e-002	(-6.39170025588023e+001dB,1.77097805331017e+002°)
1.01204541109654e-002	(-6.39130051077288e+001dB,1.77097137282096e+002°)
1.01227846999511e-002	(-6.39090076578287e+001dB,1.77096469079530e+002°)
1.01251158256365e-002	(-6.39050102091024e+001dB,1.77095800723282e+002°)
1.01274474881453e-002	(-6.39010127615506e+001dB,1.77095132213317e+002°)
1.01297796876010e-002	(-6.38970153151737e+001dB,1.77094463549601e+002°)
1.01321124241273e-002	(-6.38930178699724e+001dB,1.77093794732097e+002°)
1.01344456978479e-002	(-6.38890204259471e+001dB,1.77093125760771e+002°)
1.01367795088864e-002	(-6.38850229830983e+001dB,1.77092456635587e+002°)
1.01391138573667e-002	(-6.38810255414268e+001dB,1.77091787356510e+002°)
1.01414487434125e-002	(-6.38770281009328e+001dB,1.77091117923504e+002°)
1.01437841671476e-002	(-6.38730306616171e+001dB,1.77090448336535e+002°)
1.01461201286958e-002	(-6.38690332234802e+001dB,1.77089778595567e+002°)
1.01484566281809e-002	(-6.38650357865225e+001dB,1.77089108700565e+002°)
1.01507936657269e-002	(-6.38610383507447e+001dB,1.77088438651493e+002°)
1.01531312414576e-002	(-6.38570409161473e+001dB,1.77087768448315e+002°)
1.01554693554969e-002	(-6.38530434827307e+001dB,1.77087098090998e+002°)
1.01578080079689e-002	(-6.38490460504957e+001dB,1.77086427579504e+002°)
1.01601471989976e-002	(-6.38450486194427e+001dB,1.77085756913800e+002°)
1.01624869287069e-002	(-6.38410511895722e+001dB,1.77085086093849e+002°)
1.01648271972209e-002	(-6.38370537608848e+001dB,1.77084415119616e+002°)
1.01671680046637e-002	(-6.38330563333811e+001dB,1.77083743991067e+002°)
1.01695093511594e-002	(-6.38290589070616e+001dB,1.77083072708164e+002°)
1.01718512368321e-002	(-6.38250614819268e+001dB,1.77082401270873e+002°)
1.01741936618060e-002	(-6.38210640579772e+001dB,1.77081729679159e+002°)
1.01765366262053e-002	(-6.38170666352135e+001dB,1.77081057932986e+002°)
1.01788801301542e-002	(-6.38130692136362e+001dB,1.77080386032319e+002°)
1.01812241737769e-002	(-6.38090717932458e+001dB,1.77079713977121e+002°)
1.01835687571978e-002	(-6.38050743740428e+001dB,1.77079041767359e+002°)
1.01859138805411e-002	(-6.38010769560279e+001dB,1.77078369402996e+002°)
1.01882595439312e-002	(-6.37970795392015e+001dB,1.77077696883997e+002°)
1.01906057474924e-002	(-6.37930821235642e+001dB,1.77077024210326e+002°)
1.01929524913492e-002	(-6.37890847091165e+001dB,1.77076351381948e+002°)
1.01952997756259e-002	(-6.37850872958591e+001dB,1.77075678398828e+002°)
1.01976476004471e-002	(-6.37810898837924e+001dB,1.77075005260929e+002°)
1.01999959659371e-002	(-6.37770924729169e+001dB,1.77074331968217e+002°)
1.02023448722206e-002	(-6.37730950632333e+001dB,1.77073658520656e+002°)
1.02046943194219e-002	(-6.37690976547421e+001dB,1.77072984918210e+002°)
1.02070443076658e-002	(-6.37651002474439e+001dB,1.77072311160844e+002°)
1.02093948370767e-002	(-6.37611028413391e+001dB,1.77071637248522e+002°)
1.02117459077794e-002	(-6.37571054364284e+001dB,1.77070963181209e+002°)
1.02140975198984e-002	(-6.37531080327122e+001dB,1.77070288958869e+002°)
1.02164496735585e-002	(-6.37491106301912e+001dB,1.77069614581467e+002°)
1.02188023688843e-002	(-6.37451132288658e+001dB,1.77068940048967e+002°)
1.02211556060006e-002	(-6.37411158287367e+001dB,1.77068265361334e+002°)
1.02235093850322e-002	(-6.37371184298044e+001dB,1.77067590518531e+002°)
1.02258637061038e-002	(-6.37331210320694e+001dB,1.77066915520524e+002°)
1.02282185693404e-002	(-6.37291236355322e+001dB,1.77066240367276e+002°)
1.02305739748666e-002	(-6.37251262401936e+001dB,1.77065565058753e+002°)
1.02329299228074e-002	(-6.37211288460539e+001dB,1.77064889594918e+002°)
1.02352864132878e-002	(-6.37171314531137e+001dB,1.77064213975736e+002°)
1.02376434464327e-002	(-6.37131340613736e+001dB,1.77063538201171e+002°)
1.02400010223669e-002	(-6.37091366708342e+001dB,1.77062862271188e+002°)
1.02423591412156e-002	(-6.37051392814959e+001dB,1.77062186185750e+002°)
1.02447178031037e-002	(-6.37011418933594e+001dB,1.77061509944823e+002°)
1.02470770081563e-002	(-6.36971445064253e+001dB,1.77060833548371e+002°)
1.02494367564986e-002	(-6.36931471206939e+001dB,1.77060156996357e+002°)
1.02517970482555e-002	(-6.36891497361660e+001dB,1.77059480288747e+002°)
1.02541578835522e-002	(-6.36851523528420e+001dB,1.77058803425504e+002°)
1.02565192625140e-002	(-6.36811549707225e+001dB,1.77058126406594e+002°)
1.02588811852659e-002	(-6.36771575898081e+001dB,1.77057449231979e+002°)
1.02612436519333e-002	(-6.36731602100993e+001dB,1.77056771901625e+002°)
1.02636066626414e-002	(-6.36691628315967e+001dB,1.77056094415495e+002°)
1.02659702175154e-002	(-6.36651654543008e+001dB,1.77055416773555e+002°)
1.02683343166808e-002	(-6.36611680782123e+001dB,1.77054738975767e+002°)
1.02706989602627e-002	(-6.36571707033315e+001dB,1.77054061022098e+002°)
1.02730641483867e-002	(-6.36531733296592e+001dB,1.77053382912510e+002°)
1.02754298811780e-002	(-6.36491759571958e+001dB,1.77052704646968e+002°)
1.02777961587622e-002	(-6.36451785859419e+001dB,1.77052026225436e+002°)
1.02801629812646e-002	(-6.36411812158980e+001dB,1.77051347647878e+002°)
1.02825303488108e-002	(-6.36371838470648e+001dB,1.77050668914259e+002°)
1.02848982615264e-002	(-6.36331864794428e+001dB,1.77049990024543e+002°)
1.02872667195367e-002	(-6.36291891130325e+001dB,1.77049310978694e+002°)
1.02896357229674e-002	(-6.36251917478345e+001dB,1.77048631776677e+002°)
1.02920052719442e-002	(-6.36211943838494e+001dB,1.77047952418454e+002°)
1.02943753665925e-002	(-6.36171970210776e+001dB,1.77047272903992e+002°)
1.02967460070382e-002	(-6.36131996595199e+001dB,1.77046593233252e+002°)
1.02991171934069e-002	(-6.36092022991766e+001dB,1.77045913406201e+002°)
1.03014889258242e-002	(-6.36052049400485e+001dB,1.77045233422802e+002°)
1.03038612044160e-002	(-6.36012075821360e+001dB,1.77044553283019e+002°)
1.03062340293081e-002	(-6.35972102254396e+001dB,1.77043872986816e+002°)
1.03086074006261e-002	(-6.35932128699601e+001dB,1.77043192534158e+002°)
1.03109813184961e-002	(-6.35892155156978e+001dB,1.77042511925008e+002°)
1.03133557830437e-002	(-6.35852181626535e+001dB,1.77041831159331e+002°)
1.03157307943950e-002	(-6.35812208108276e+001dB,1.77041150237091e+002°)
1.03181063526758e-002	(-6.35772234602207e+001dB,1.77040469158251e+002°)
1.03204824580121e-002	(-6.35732261108333e+001dB,1.77039787922777e+002°)
1.03228591105299e-002	(-6.35692287626661e+001dB,1.77039106530631e+002°)
1.03252363103551e-002	(-6.35652314157196e+001dB,1.77038424981778e+002°)
1.03276140576138e-002	(-6.35612340699943e+001dB,1.77037743276183e+002°)
1.03299923524322e-002	(-6.35572367254908e+001dB,1.77037061413808e+002°)
1.03323711949362e-002	(-6.35532393822097e+001dB,1.77036379394619e+002°)
1.03347505852520e-002	(-6.35492420401515e+001dB,1.77035697218579e+002°)
1.03371305235057e-002	(-6.35452446993168e+001dB,1.77035014885652e+002°)
1.03395110098236e-002	(-6.35412473597062e+001dB,1.77034332395802e+002°)
1.03418920443318e-002	(-6.35372500213202e+001dB,1.77033649748994e+002°)
1.03442736271566e-002	(-6.35332526841594e+001dB,1.77032966945191e+002°)
1.03466557584242e-002	(-6.35292553482243e+001dB,1.77032283984357e+002°)
1.03490384382610e-002	(-6.35252580135156e+001dB,1.77031600866456e+002°)
1.03514216667933e-002	(-6.35212606800337e+001dB,1.77030917591453e+002°)
1.03538054441474e-002	(-6.35172633477793e+001dB,1.77030234159311e+002°)
1.03561897704497e-002	(-6.35132660167528e+001dB,1.77029550569994e+002°)
1.03585746458267e-002	(-6.35092686869550e+001dB,1.77028866823466e+002°)
1.03609600704047e-002	(-6.35052713583862e+001dB,1.77028182919691e+002°)
1.03633460443103e-002	(-6.35012740310472e+001dB,1.77027498858632e+002°)
1.03657325676699e-002	(-6.34972767049385e+001dB,1.77026814640255e+002°)
1.03681196406101e-002	(-6.34932793800605e+001dB,1.77026130264523e+002°)
1.03705072632575e-002	(-6.34892820564140e+001dB,1.77025445731399e+002°)
1.03728954357386e-002	(-6.34852847339994e+001dB,1.77024761040848e+002°)
1.03752841581800e-002	(-6.34812874128174e+001dB,1.77024076192833e+002°)
1.03776734307084e-002	(-6.34772900928685e+001dB,1.77023391187319e+002°)
1.03800632534505e-002	(-6.34732927741532e+001dB,1.77022706024269e+002°)
1.03824536265330e-002	(-6.34692954566722e+001dB,1.77022020703647e+002°)
1.03848445500826e-002	(-6.34652981404259e+001dB,1.77021335225417e+002°)
1.03872360242261e-002	(-6.34613008254151e+001dB,1.77020649589543e+002°)
1.03896280490902e-002	(-6.34573035116401e+001dB,1.77019963795989e+002°)
1.03920206248019e-002	(-6.34533061991017e+001dB,1.77019277844718e+002°)
1.03944137514879e-002	(-6.34493088878003e+001dB,1.77018591735694e+002°)
1.03968074292751e-002	(-6.34453115777367e+001dB,1.77017905468882e+002°)
1.03992016582904e-002	(-6.34413142689111e+001dB,1.77017219044244e+002°)
1.04015964386609e-002	(-6.34373169613244e+001dB,1.77016532461745e+002°)
1.04039917705134e-002	(-6.34333196549771e+001dB,1.77015845721349e+002°)
1.04063876539749e-002	(-6.34293223498697e+001dB,1.77015158823019e+002°)
1.04087840891725e-002	(-6.34253250460027e+001dB,1.77014471766720e+002°)
1.04111810762332e-002	(-6.34213277433768e+001dB,1.77013784552414e+002°)
1.04135786152842e-002	(-6.34173304419926e+001dB,1.77013097180066e+002°)
1.04159767064525e-002	(-6.34133331418506e+001dB,1.77012409649639e+002°)
1.04183753498652e-002	(-6.34093358429513e+001dB,1.77011721961097e+002°)
1.04207745456496e-002	(-6.34053385452954e+001dB,1.77011034114404e+002°)
1.04231742939329e-002	(-6.34013412488834e+001dB,1.77010346109524e+002°)
1.04255745948422e-002	(-6.33973439537159e+001dB,1.77009657946420e+002°)
1.04279754485049e-002	(-6.33933466597935e+001dB,1.77008969625056e+002°)
1.04303768550482e-002	(-6.33893493671167e+001dB,1.77008281145396e+002°)
1.04327788145995e-002	(-6.33853520756861e+001dB,1.77007592507404e+002°)
1.04351813272861e-002	(-6.33813547855023e+001dB,1.77006903711042e+002°)
1.04375843932353e-002	(-6.33773574965659e+001dB,1.77006214756275e+002°)
1.04399880125747e-002	(-6.33733602088773e+001dB,1.77005525643067e+002°)
1.04423921854316e-002	(-6.33693629224374e+001dB,1.77004836371381e+002°)
1.04447969119335e-002	(-6.33653656372464e+001dB,1.77004146941180e+002°)
1.04472021922078e-002	(-6.33613683533052e+001dB,1.77003457352429e+002°)
1.04496080263822e-002	(-6.33573710706141e+001dB,1.77002767605091e+002°)
1.04520144145842e-002	(-6.33533737891739e+001dB,1.77002077699130e+002°)
1.04544213569413e-002	(-6.33493765089850e+001dB,1.77001387634509e+002°)
1.04568288535812e-002	(-6.33453792300481e+001dB,1.77000697411192e+002°)
1.04592369046315e-002	(-6.33413819523638e+001dB,1.77000007029143e+002°)
1.04616455102199e-002	(-6.33373846759325e+001dB,1.76999316488324e+002°)
1.04640546704741e-002	(-6.33333874007549e+001dB,1.76998625788701e+002°)
1.04664643855218e-002	(-6.33293901268316e+001dB,1.76997934930235e+002°)
1.04688746554908e-002	(-6.33253928541631e+001dB,1.76997243912892e+002°)
1.04712854805088e-002	(-6.33213955827501e+001dB,1.76996552736634e+002°)
1.04736968607038e-002	(-6.33173983125930e+001dB,1.76995861401424e+002°)
1.04761087962034e-002	(-6.33134010436925e+001dB,1.76995169907228e+002°)
1.04785212871357e-002	(-6.33094037760492e+001dB,1.76994478254007e+002°)
1.04809343336286e-002	(-6.33054065096635e+001dB,1.76993786441726e+002°)
1.04833479358098e-002	(-6.33014092445362e+001dB,1.76993094470348e+002°)
1.04857620938075e-002	(-6.32974119806678e+001dB,1.76992402339837e+002°)
1.04881768077497e-002	(-6.32934147180588e+001dB,1.76991710050156e+002°)
1.04905920777643e-002	(-6.32894174567099e+001dB,1.76991017601268e+002°)
1.04930079039794e-002	(-6.32854201966216e+001dB,1.76990324993138e+002°)
1.04954242865230e-002	(-6.32814229377945e+001dB,1.76989632225728e+002°)
1.04978412255234e-002	(-6.32774256802291e+001dB,1.76988939299002e+002°)
1.05002587211087e-002	(-6.32734284239262e+001dB,1.76988246212924e+002°)
1.05026767734069e-002	(-6.32694311688862e+001dB,1.76987552967457e+002°)
1.05050953825464e-002	(-6.32654339151097e+001dB,1.76986859562564e+002°)
1.05075145486553e-002	(-6.32614366625973e+001dB,1.76986165998208e+002°)
1.05099342718620e-002	(-6.32574394113496e+001dB,1.76985472274355e+002°)
1.05123545522946e-002	(-6.32534421613671e+001dB,1.76984778390966e+002°)
1.05147753900816e-002	(-6.32494449126505e+001dB,1.76984084348005e+002°)
1.05171967853513e-002	(-6.32454476652004e+001dB,1.76983390145435e+002°)
1.05196187382320e-002	(-6.32414504190172e+001dB,1.76982695783220e+002°)
1.05220412488522e-002	(-6.32374531741017e+001dB,1.76982001261324e+002°)
1.05244643173403e-002	(-6.32334559304543e+001dB,1.76981306579710e+002°)
1.05268879438248e-002	(-6.32294586880758e+001dB,1.76980611738340e+002°)
1.05293121284342e-002	(-6.32254614469665e+001dB,1.76979916737179e+002°)
1.05317368712970e-002	(-6.32214642071272e+001dB,1.76979221576190e+002°)
1.05341621725417e-002	(-6.32174669685584e+001dB,1.76978526255335e+002°)
1.05365880322970e-002	(-6.32134697312607e+001dB,1.76977830774580e+002°)
1.05390144506914e-002	(-6.32094724952347e+001dB,1.76977135133886e+002°)
1.05414414278537e-002	(-6.32054752604809e+001dB,1.76976439333217e+002°)
1.05438689639124e-002	(-6.32014780270000e+001dB,1.76975743372536e+002°)
1.05462970589963e-002	(-6.31974807947926e+001dB,1.76975047251807e+002°)
1.05487257132342e-002	(-6.31934835638592e+001dB,1.76974350970994e+002°)
1.05511549267547e-002	(-6.31894863342004e+001dB,1.76973654530058e+002°)
1.05535846996867e-002	(-6.31854891058167e+001dB,1.76972957928964e+002°)
1.05560150321591e-002	(-6.31814918787089e+001dB,1.76972261167675e+002°)
1.05584459243006e-002	(-6.31774946528775e+001dB,1.76971564246154e+002°)
1.05608773762402e-002	(-6.31734974283230e+001dB,1.76970867164365e+002°)
1.05633093881067e-002	(-6.31695002050460e+001dB,1.76970169922270e+002°)
1.05657419600291e-002	(-6.31655029830472e+001dB,1.76969472519833e+002°)
1.05681750921364e-002	(-6.31615057623271e+001dB,1.76968774957017e+002°)
1.05706087845575e-002	(-6.31575085428863e+001dB,1.76968077233785e+002°)
1.05730430374216e-002	(-6.31535113247255e+001dB,1.76967379350101e+002°)
1.05754778508577e-002	(-6.31495141078451e+001dB,1.76966681305927e+002°)
1.05779132249948e-002	(-6.31455168922458e+001dB,1.76965983101228e+002°)
1.05803491599621e-002	(-6.31415196779281e+001dB,1.76965284735965e+002°)
1.05827856558887e-002	(-6.31375224648927e+001dB,1.76964586210103e+002°)
1.05852227129039e-002	(-6.31335252531402e+001dB,1.76963887523604e+002°)
1.05876603311368e-002	(-6.31295280426711e+001dB,1.76963188676432e+002°)
1.05900985107166e-002	(-6.31255308334860e+001dB,1.76962489668550e+002°)
1.05925372517727e-002	(-6.31215336255855e+001dB,1.76961790499920e+002°)
1.05949765544343e-002	(-6.31175364189702e+001dB,1.76961091170507e+002°)
1.05974164188308e-002	(-6.31135392136408e+001dB,1.76960391680272e+002°)
1.05998568450915e-002	(-6.31095420095977e+001dB,1.76959692029180e+002°)
1.06022978333458e-002	(-6.31055448068416e+001dB,1.76958992217194e+002°)
1.06047393837231e-002	(-6.31015476053731e+001dB,1.76958292244276e+002°)
1.06071814963529e-002	(-6.30975504051927e+001dB,1.76957592110389e+002°)
1.06096241713647e-002	(-6.30935532063011e+001dB,1.76956891815498e+002°)
1.06120674088880e-002	(-6.30895560086989e+001dB,1.76956191359564e+002°)
1.06145112090522e-002	(-6.30855588123866e+001dB,1.76955490742551e+002°)
1.06169555719870e-002	(-6.30815616173648e+001dB,1.76954789964421e+002°)
1.06194004978220e-002	(-6.30775644236342e+001dB,1.76954089025139e+002°)
1.06218459866868e-002	(-6.30735672311953e+001dB,1.76953387924667e+002°)
1.06242920387110e-002	(-6.30695700400487e+001dB,1.76952686662968e+002°)
1.06267386540244e-002	(-6.30655728501950e+001dB,1.76951985240004e+002°)
1.06291858327567e-002	(-6.30615756616349e+001dB,1.76951283655740e+002°)
1.06316335750375e-002	(-6.30575784743688e+001dB,1.76950581910138e+002°)
1.06340818809967e-002	(-6.30535812883975e+001dB,1.76949880003161e+002°)
1.06365307507641e-002	(-6.30495841037214e+001dB,1.76949177934773e+002°)
1.06389801844696e-002	(-6.30455869203412e+001dB,1.76948475704935e+002°)
1.06414301822429e-002	(-6.30415897382575e+001dB,1.76947773313611e+002°)
1.06438807442140e-002	(-6.30375925574709e+001dB,1.76947070760765e+002°)
1.06463318705129e-002	(-6.30335953779820e+001dB,1.76946368046358e+002°)
1.06487835612694e-002	(-6.30295981997913e+001dB,1.76945665170354e+002°)
1.06512358166136e-002	(-6.30256010228996e+001dB,1.76944962132716e+002°)
1.06536886366754e-002	(-6.30216038473072e+001dB,1.76944258933407e+002°)
1.06561420215849e-002	(-6.30176066730150e+001dB,1.76943555572390e+002°)
